Circuit: * C:\Users\rohan\Downloads\project_zip\NOT_CMOS.asc

WARNING: Node IN is floating.
WARNING: Node NC_01 is floating.

WARNING: Less than two connections to node NC_01.  This node is used by M2.
Direct Newton iteration failed to find .op point.  (Use ".option noopiter" to skip.)
Starting Gmin stepping
Gmin = 10
Gmin = 1.07374
Gmin = 0.115292
Gmin = 0.0123794
Gmin = 0.00132923
Gmin = 0.000142725
Gmin = 1.5325e-005
Gmin = 1.6455e-006
Gmin = 1.76685e-007
Gmin = 1.89714e-008
Gmin = 2.03704e-009
Gmin = 2.18725e-010
Gmin = 2.34854e-011
Gmin = 2.52173e-012
Gmin = 2.70769e-013
Gmin = 0
Gmin stepping succeeded in finding the operating point.

Semiconductor Device Operating Points:
                        --- BSIM4 MOSFETS ---
Name:      m2          m1
Model:    p_50n       n_50n
Id:      5.46e+00    4.69e+00
Vgs:     1.05e-02    5.76e+00
Vds:     6.25e+00    5.75e+00
Vbs:    -3.97e+01    0.00e+00
Vth:    -1.12e-02    2.67e-01
Vdsat:  -2.16e+00    1.88e+00
Gm:     -9.93e-03   -5.53e-04
Gds:     2.19e-02    1.85e-03
Gmb      2.04e-08    4.76e-09
Cbd:     5.90e-15    7.68e-16
Cbs:     5.37e-15    1.01e-15



Date: Sun Nov 14 18:22:42 2021
Total elapsed time: 1.214 seconds.

tnom = 27
temp = 27
method = trap
totiter = 667
traniter = 0
tranpoints = 0
accept = 0
rejected = 0
matrix size = 14
fillins = 0
solver = Normal
Matrix Compiler1: 1.53 KB object code size
Matrix Compiler2: 1.41 KB object code size  0.5/0.5/[0.4]

